
**** 12/10/15 11:16:19 ***** PSpice 16.6.0 (October 2012) ***** ID# 0 ********

 ** Profile: "SCHEMATIC1-bias"  [ C:\Users\sgelinas\Documents\Git SmartHalo\Hardware\Simulation\centralleddriver-pspicefiles\schemati


 ****     CIRCUIT DESCRIPTION


******************************************************************************




** Creating circuit file "bias.cir" 
** WARNING: THIS AUTOMATICALLY GENERATED FILE MAY BE OVERWRITTEN BY SUBSEQUENT SIMULATIONS

*Libraries: 
* Profile Libraries :
* Local Libraries :
.LIB "../../../centralleddriver-pspicefiles/centralleddriver.lib" 
* From [PSPICE NETLIST] section of C:\Users\sgelinas\cdssetup\OrCAD_PSpice/16.6.0/PSpice.ini file:
.lib "nom.lib" 

*Analysis directives: 
.OPTIONS ADVCONV
.PROBE64 V(alias(*)) I(alias(*)) W(alias(*)) D(alias(*)) NOISE(alias(*)) 
.INC "..\SCHEMATIC1.net" 



**** INCLUDING SCHEMATIC1.net ****
* source CENTRALLEDDRIVER
R_R1         N00169 N00173  8.2k TC=0,0 
R_R2         N01597 N00169  .01 TC=0,0 
V_V1         N00169 0 5Vdc
Q_Q1         N00701 N00173 0 Qbreakn 
D_D1         N01009 N00701 Dbreak 
D_D2         N00993 N01009 Dbreak 
D_D3         N01386 N00993 Dbreak 
D_D4         N01597 N01386 Dbreak 

**** RESUMING bias.cir ****
.END

**** 12/10/15 11:16:19 ***** PSpice 16.6.0 (October 2012) ***** ID# 0 ********

 ** Profile: "SCHEMATIC1-bias"  [ C:\Users\sgelinas\Documents\Git SmartHalo\Hardware\Simulation\centralleddriver-pspicefiles\schemati


 ****     Diode MODEL PARAMETERS


******************************************************************************




               Dbreak          
          IS   10.000000E-15 
          RS     .1          
         CJO  100.000000E-15 


**** 12/10/15 11:16:19 ***** PSpice 16.6.0 (October 2012) ***** ID# 0 ********

 ** Profile: "SCHEMATIC1-bias"  [ C:\Users\sgelinas\Documents\Git SmartHalo\Hardware\Simulation\centralleddriver-pspicefiles\schemati


 ****     BJT MODEL PARAMETERS


******************************************************************************




               Qbreakn         
               NPN             
       LEVEL    1            
          IS  100.000000E-18 
          BF  200            
          NF    1            
          BR    1            
          NR    1            
         ISS    0            
          RE    0            
          RC    0            
         CJE    0            
         VJE     .75         
         CJC    0            
         VJC     .75         
         MJC     .33         
        XCJC    1            
         CJS    0            
         VJS     .75         
          KF    0            
          AF    1            
          CN    2.42         
           D     .87         


**** 12/10/15 11:16:19 ***** PSpice 16.6.0 (October 2012) ***** ID# 0 ********

 ** Profile: "SCHEMATIC1-bias"  [ C:\Users\sgelinas\Documents\Git SmartHalo\Hardware\Simulation\centralleddriver-pspicefiles\schemati


 ****     SMALL SIGNAL BIAS SOLUTION       TEMPERATURE =   27.000 DEG C


******************************************************************************



 NODE   VOLTAGE     NODE   VOLTAGE     NODE   VOLTAGE     NODE   VOLTAGE


(N00169)    5.0000 (N00173)     .8934 (N00701)    1.8619 (N00993)    3.4305     

(N01009)    2.6462 (N01386)    4.2147 (N01597)    4.9990 




    VOLTAGE SOURCE CURRENTS
    NAME         CURRENT

    V_V1        -1.007E-01

    TOTAL POWER DISSIPATION   5.03E-01  WATTS



          JOB CONCLUDED

**** 12/10/15 11:16:19 ***** PSpice 16.6.0 (October 2012) ***** ID# 0 ********

 ** Profile: "SCHEMATIC1-bias"  [ C:\Users\sgelinas\Documents\Git SmartHalo\Hardware\Simulation\centralleddriver-pspicefiles\schemati


 ****     JOB STATISTICS SUMMARY


******************************************************************************



  Total job time (using Solver 1)   =        0.00
